!Keysight Technologies,N5245A,MY56052327,A.10.47.06
!Date: Tuesday, January 19, 2021 16:35:26
!Correction: S11(Full 4 Port(1,2,3,4)) 
!S12(Full 4 Port(1,2,3,4)) 
!S13(Full 4 Port(1,2,3,4)) 
!S14(Full 4 Port(1,2,3,4)) 
!S21(Full 4 Port(1,2,3,4)) 
!S22(Full 4 Port(1,2,3,4)) 
!S23(Full 4 Port(1,2,3,4)) 
!S24(Full 4 Port(1,2,3,4)) 
!S31(Full 4 Port(1,2,3,4)) 
!S32(Full 4 Port(1,2,3,4)) 
!S33(Full 4 Port(1,2,3,4)) 
!S34(Full 4 Port(1,2,3,4)) 
!S41(Full 4 Port(1,2,3,4)) 
!S42(Full 4 Port(1,2,3,4)) 
!S43(Full 4 Port(1,2,3,4)) 
!S44(Full 4 Port(1,2,3,4)) 
!S4P File: Measurements: <S11,S12,S13,S14>,
!<S21,S22,S23,S24>,
!<S31,S32,S33,S34>,
!<S41,S42,S43,S44>:
# Hz S  dB   R 50
10000000 -20.131268 64.171196 -0.22450814 -13.258915 -34.672127 70.676636 -48.531971 -175.91284
-0.20597838 -13.360817 -20.118801 65.755295 -48.15863 -177.44728 -34.614456 71.005661
-34.374252 67.997536 -48.09304 -155.67694 -20.163601 64.983932 -0.21636182 -13.306807
-50.286022 -174.73343 -34.718391 68.734604 -0.21795309 -13.245975 -19.968605 66.632339
20000000 -25.072727 43.802311 -0.24577139 -18.390406 -29.124052 67.391785 -44.659256 -156.87856
-0.24852309 -18.460264 -25.207016 46.777374 -46.38702 -156.49457 -29.03367 66.152351
-29.427549 67.188309 -45.355228 -155.22585 -24.911112 46.514652 -0.24151632 -18.178688
-45.269016 -157.43359 -29.280125 66.361938 -0.25584435 -18.181316 -24.89217 48.772938
30000000 -27.217989 22.203861 -0.30238333 -25.08737 -25.916502 60.844856 -44.011246 -158.24088
-0.29888496 -25.053267 -27.493608 25.478033 -43.915527 -158.68422 -25.916716 61.357262
-25.88467 60.590611 -43.980122 -155.29639 -26.715021 27.827293 -0.29822457 -24.767347
-43.958092 -161.59724 -25.878006 60.835232 -0.29740715 -24.761824 -26.78163 29.201668
40000000 -28.264809 0.8713147 -0.35034886 -32.081409 -23.730976 54.664337 -42.965584 -160.78351
-0.35615578 -32.051327 -28.657221 3.8754537 -43.177021 -158.09012 -23.725483 54.351738
-23.666124 54.108952 -43.689957 -155.92227 -27.69915 8.096777 -0.34815824 -31.700796
-42.752926 -158.51654 -23.692003 55.082954 -0.35777465 -31.687786 -27.706734 9.597827
50000000 -28.777151 -19.769135 -0.39635628 -39.293541 -22.080608 47.675224 -42.76334 -160.80634
-0.40040183 -39.284576 -29.02463 -16.969587 -42.817345 -158.5466 -22.10936 48.1577
-22.082571 47.640705 -42.674358 -159.52229 -28.405178 -10.288678 -0.39134574 -38.803093
-42.268856 -158.31259 -22.098515 47.968685 -0.3932476 -38.785156 -28.037312 -8.2540722
60000000 -29.015535 -37.275387 -0.44382316 -46.499313 -20.86211 41.026051 -41.840599 -159.12688
-0.44471765 -46.497196 -29.012508 -35.886726 -42.380215 -158.38055 -20.882423 41.427876
-20.889204 40.861992 -41.817089 -153.34586 -29.14329 -26.223749 -0.42947468 -45.906837
-41.690166 -158.13733 -20.878532 41.348984 -0.43803817 -45.914669 -28.236073 -24.917904
70000000 -28.960754 -54.543045 -0.4847219 -53.724903 -19.938227 34.08849 -41.05027 -157.59293
-0.48842832 -53.720387 -28.767914 -52.042126 -40.665993 -156.77904 -19.943411 34.658089
-19.92914 34.141529 -40.781849 -155.6438 -29.626472 -41.190014 -0.48047784 -53.062885
-41.134033 -155.19162 -19.982157 34.635235 -0.47584537 -53.034958 -28.091595 -39.888805
80000000 -28.873266 -68.982239 -0.5262413 -60.982594 -19.226681 27.186531 -39.735676 -158.67413
-0.52715814 -60.952812 -28.408632 -66.710907 -39.802711 -155.82088 -19.252947 27.97574
-19.173952 27.061855 -39.938927 -156.39169 -29.611744 -54.386314 -0.51825893 -60.163982
-39.721565 -156.366 -19.232773 27.759418 -0.51649684 -60.150978 -27.958731 -53.095711
90000000 -28.734756 -83.363327 -0.56227809 -68.182907 -18.691479 20.318382 -38.733368 -157.40695
-0.56643742 -68.205635 -28.155972 -79.796616 -38.28743 -157.18465 -18.691505 21.282124
-18.692329 20.280621 -38.493568 -157.61584 -30.000357 -68.504997 -0.5548948 -67.305962
-38.743664 -158.51784 -18.709568 21.210375 -0.55552953 -67.30439 -27.708389 -66.059891
100000000 -28.702991 -96.182594 -0.6011036 -75.397369 -18.318588 13.589144 -37.476852 -161.43358
-0.60220963 -75.407608 -27.878851 -91.897972 -37.012215 -159.741 -18.319193 14.466305
-18.317762 13.522209 -36.976627 -159.64265 -30.254862 -81.765106 -0.5942688 -74.444801
-37.258091 -160.60233 -18.322397 14.484494 -0.59059012 -74.447868 -27.521761 -77.895241
110000000 -28.781151 -108.68131 -0.63540131 -82.608109 -18.098454 6.8387451 -36.157604 -165.2323
-0.63715857 -82.601265 -27.772106 -102.5496 -35.61869 -163.84436 -18.112028 7.8380084
-18.095089 6.7848258 -35.737343 -163.29366 -30.92696 -96.371872 -0.62685192 -81.569328
-36.0956 -165.19981 -18.103321 7.7120342 -0.62627363 -81.577469 -27.366438 -89.507599
120000000 -28.823252 -120.29133 -0.66322124 -89.76432 -17.99733 0.12276153 -35.000816 -170.38824
-0.66843516 -89.795715 -27.699244 -113.58878 -34.611843 -169.09959 -18.011604 1.2153596
-17.9807 0.15311059 -34.516003 -169.88393 -31.173103 -111.09954 -0.6561411 -88.67701
-34.824276 -170.46252 -18.002588 1.2296724 -0.65267283 -88.661751 -27.207947 -100.75517
130000000 -28.861233 -131.44295 -0.69233114 -96.952499 -18.008512 -6.6143236 -33.742985 -176.34944
-0.69344246 -96.971344 -27.674093 -124.13924 -33.45816 -176.17316 -18.050611 -5.2527061
-18.030735 -6.5868053 -33.375072 -175.60588 -31.572416 -126.00966 -0.68211478 -95.762207
-33.870163 -175.7989 -18.037092 -5.2320528 -0.68485349 -95.771149 -27.098486 -110.89317
140000000 -28.923939 -141.30478 -0.71941841 -104.14634 -18.169643 -13.27522 -32.671413 177.50761
-0.71969646 -104.14517 -27.899183 -133.92906 -32.37125 176.88765 -18.211409 -11.802037
-18.18277 -13.235941 -32.340183 177.76495 -31.903538 -140.29147 -0.70807302 -102.85853
-32.764233 177.45782 -18.193205 -11.712433 -0.70897418 -102.8648 -27.046738 -121.31538
150000000 -29.101492 -151.82011 -0.73992872 -111.29293 -18.460175 -19.755215 -31.714754 170.16463
-0.74347752 -111.30922 -28.155504 -143.38892 -31.418795 170.03276 -18.498001 -18.060598
-18.460239 -19.731537 -31.385527 169.91948 -32.197136 -155.93854 -0.72529423 -109.93691
-31.839705 170.63881 -18.499811 -18.133982 -0.73078781 -109.93412 -26.987934 -131.74278
160000000 -29.525642 -161.50621 -0.76017475 -118.48246 -18.895607 -26.306313 -30.888992 163.65131
-0.76210755 -118.47406 -28.547165 -153.07492 -30.584105 162.45708 -18.941303 -24.235588
-18.902525 -26.358885 -30.610142 163.10281 -32.349167 -171.38336 -0.75110406 -117.05054
-30.930504 163.17368 -18.912252 -24.411993 -0.75316876 -117.05299 -27.135067 -141.40598
170000000 -29.997669 -171.64886 -0.77728564 -125.66767 -19.480652 -32.755859 -30.148024 155.68559
-0.78159469 -125.68314 -29.069717 -161.86499 -29.842348 154.67998 -19.498127 -30.437151
-19.472805 -32.718426 -29.778484 154.78351 -32.608788 172.00601 -0.76724613 -124.13663
-30.141306 155.16461 -19.523001 -30.373028 -0.76877385 -124.14336 -27.216667 -150.60004
180000000 -30.616261 179.64369 -0.79220563 -132.87527 -20.222069 -38.890068 -29.429525 147.4874
-0.79438984 -132.8732 -29.752033 -170.6468 -29.129726 146.5771 -20.25279 -36.324062
-20.23242 -39.047668 -29.165962 146.35599 -32.698536 155.54958 -0.78354836 -131.25984
-29.391348 147.83635 -20.239422 -36.251034 -0.78241795 -131.24402 -27.339762 -159.61745
190000000 -31.444666 170.85182 -0.81005222 -140.07916 -21.171247 -44.991486 -28.766916 139.4017
-0.80848104 -140.09135 -30.684052 -179.11418 -28.499432 138.11398 -21.201466 -41.815754
-21.160671 -44.980095 -28.559952 138.51268 -32.812168 137.31967 -0.80176318 -138.36699
-28.742004 139.61147 -21.217947 -41.965481 -0.80535662 -138.36278 -27.617039 -169.11383
200000000 -32.475822 162.5518 -0.82392597 -147.30746 -22.368597 -50.737839 -28.218697 131.26912
-0.82600099 -147.30072 -31.91436 172.71165 -27.956928 130.08424 -22.399963 -46.91164
-22.340927 -50.830227 -27.945595 129.82001 -32.826706 120.98016 -0.81652486 -145.48587
-28.205517 131.35617 -22.393984 -46.910828 -0.82013392 -145.49879 -27.928831 -178.25583
210000000 -33.898205 155.1526 -0.8344273 -154.5248 -23.889427 -55.815987 -27.684315 123.49036
-0.83908606 -154.53775 -33.694263 164.72183 -27.505203 121.64 -23.874687 -51.187107
-23.871828 -56.213097 -27.50075 121.48309 -32.542782 105.39648 -0.83298165 -152.63046
-27.691103 123.42604 -23.93524 -51.255486 -0.83076358 -152.62698 -28.287436 172.24776
220000000 -35.647377 148.23421 -0.84959483 -161.76273 -25.863388 -60.351681 -27.217875 115.22751
-0.85432786 -161.78044 -35.873196 156.04433 -27.099413 113.40891 -25.826336 -54.386078
-25.853354 -60.089668 -27.070709 113.11111 -32.384953 88.970482 -0.84736919 -159.78606
-27.234797 115.33929 -25.811808 -54.189911 -0.8487891 -159.77655 -28.861225 163.35889
230000000 -37.885612 144.28638 -0.86609554 -169.01958 -28.551874 -62.242191 -26.834232 107.41766
-0.86775845 -169.02397 -39.641972 146.0573 -26.715258 105.02177 -28.303476 -54.012028
-28.48769 -62.3657 -26.762653 105.3357 -31.938744 74.426315 -0.86181957 -166.92865
-26.825109 107.27119 -28.315132 -54.382763 -0.86099595 -166.95403 -29.461329 152.88867
240000000 -40.963917 145.12852 -0.88406801 -176.28346 -32.318199 -58.954895 -26.461006 99.213448
-0.88746703 -176.27028 -46.515732 137.56984 -26.419216 97.382813 -31.636438 -47.600918
-32.293655 -58.958767 -26.400595 97.385376 -31.216288 61.147282 -0.88045722 -174.08658
-26.499006 98.970451 -31.668365 -48.040726 -0.88036191 -174.09239 -30.061275 145.02547
250000000 -45.189564 158.50107 -0.89953762 176.44945 -37.724075 -36.186279 -26.114637 91.285934
-0.90284723 176.44061 -55.307858 -22.159203 -26.131573 89.330963 -35.037472 -23.343384
-37.596107 -35.762981 -26.145895 89.597694 -31.038803 44.839043 -0.89895123 178.73392
-26.131254 91.402313 -35.169922 -23.076424 -0.89703101 178.71709 -30.928938 132.43544
260000000 -46.69173 -152.34111 -0.92272925 169.19333 -37.590549 24.117529 -25.835667 83.55677
-0.92089254 169.18114 -41.961689 -51.400814 -25.901072 81.477409 -34.831566 16.706755
-37.530369 23.965994 -25.88785 81.561157 -30.65447 35.269428 -0.91816145 171.56578
-25.849661 83.512062 -34.705051 17.430014 -0.91753733 171.59338 -31.974697 123.26863
270000000 -42.060608 -124.03778 -0.93980396 161.9252 -32.313301 46.492611 -25.590605 75.866165
-0.94376385 161.92679 -36.782379 -61.763203 -25.675831 74.171143 -31.146742 37.774605
-32.271511 46.756245 -25.707733 74.171371 -30.310408 21.978228 -0.9397397 164.43765
-25.507378 76.140961 -31.176073 37.561481 -0.93552363 164.4254 -33.116177 110.56678
280000000 -37.868061 -119.54845 -0.96905106 154.68951 -28.651224 49.272755 -25.31205 68.586555
-0.96871156 154.67909 -33.552471 -70.122154 -25.47724 66.956146 -28.071974 42.600136
-28.612614 49.207806 -25.455269 66.837456 -30.009943 9.9816275 -0.956227 157.26584
-25.303429 68.853645 -28.071428 42.429684 -0.96013957 157.27354 -34.621666 99.296021
290000000 -34.96526 -124.08302 -0.98961771 147.44568 -26.068138 46.838982 -25.074532 61.116699
-0.99144989 147.42392 -31.231804 -78.194733 -25.322165 59.806641 -25.76458 42.046879
-26.065172 47.149715 -25.27482 59.779812 -29.780336 -1.6953603 -0.98279071 150.15205
-25.055571 61.278545 -25.754143 41.906864 -0.98399794 150.14143 -36.050144 83.292343
300000000 -32.719563 -129.00992 -1.016872 140.17262 -24.218384 42.747189 -24.852777 54.067402
-1.0169777 140.19922 -29.318258 -86.877609 -25.108028 52.779186 -24.004335 38.785007
-24.234396 42.791199 -25.119911 52.965214 -29.578684 -13.719709 -1.0058142 143.00015
-24.859781 54.015114 -23.998306 38.693417 -1.0065253 142.99626 -37.633297 64.897385
310000000 -30.87204 -136.37543 -1.0433627 132.95168 -22.788288 37.579693 -24.584621 46.866611
-1.0450034 132.95821 -27.690382 -94.932297 -24.955393 46.124424 -22.652626 34.598824
-22.80348 37.488159 -24.954889 45.996655 -29.587051 -24.287634 -1.0293741 135.87567
-24.582668 46.716908 -22.642702 34.549389 -1.0284657 135.8705 -39.649643 40.658558
320000000 -29.389975 -143.76711 -1.0720859 125.74757 -21.667187 32.041595 -24.35535 39.939175
-1.0699327 125.73 -26.469351 -102.97201 -24.738207 39.503609 -21.592926 29.596224
-21.672365 32.086258 -24.740715 39.530518 -29.557423 -34.744999 -1.05432 128.77165
-24.380404 39.921497 -21.615725 29.588045 -1.0549272 128.75595 -40.491402 11.645542
330000000 -28.184187 -150.46338 -1.0979161 118.52893 -20.822538 26.208967 -24.109711 32.796658
-1.1032219 118.54385 -25.429039 -110.87911 -24.52837 32.848255 -20.787542 24.144281
-20.841496 26.187841 -24.546366 32.981216 -29.607105 -45.36311 -1.0751468 121.63552
-24.166861 32.950638 -20.79952 24.153862 -1.0770432 121.65407 -40.109245 -18.238829
340000000 -27.131958 -158.37471 -1.1273125 111.31804 -20.19702 20.129568 -23.911402 26.143036
-1.1259555 111.32446 -24.48675 -118.52762 -24.321838 26.530504 -20.161243 18.468576
-20.179155 20.12151 -24.332479 26.413443 -29.769733 -56.103569 -1.0980487 114.55337
-23.905643 26.085812 -20.173697 18.48774 -1.1030841 114.54887 -38.610317 -45.769165
350000000 -26.13113 -165.81534 -1.1527394 104.13963 -19.700926 14.0705 -23.674231 19.21258
-1.152608 104.15265 -23.695692 -126.3353 -24.041931 20.101572 -19.726238 12.784378
-19.711727 14.183528 -24.076784 19.952301 -29.91556 -67.324409 -1.1223081 107.45242
-23.651403 19.22826 -19.720209 12.781404 -1.1229137 107.45932 -36.759281 -64.313332
360000000 -25.393257 -173.4509 -1.1736443 96.984772 -19.375153 7.9903369 -23.396383 12.430039
-1.1789627 96.967476 -23.050989 -134.52119 -23.771572 13.757011 -19.434803 7.0297437
-19.381533 8.034586 -23.788582 13.84385 -30.265408 -78.468941 -1.1420064 100.38005
-23.388735 12.360319 -19.425682 7.00354 -1.1451348 100.3803 -35.237118 -82.16098
370000000 -24.63974 179.01967 -1.2025278 89.828651 -19.205986 1.9583818 -23.13018 5.5079036
-1.2066003 89.800186 -22.540956 -142.2982 -23.497478 7.235373 -19.26325 1.1849971
-19.185198 1.7895861 -23.510893 7.2640772 -30.525642 -88.740692 -1.1672294 93.297966
-23.155699 5.3208075 -19.262421 1.2931346 -1.1635977 93.28981 -34.067364 -94.009239
380000000 -23.996952 170.97324 -1.2282724 82.64801 -19.1465 -4.3235474 -22.85899 -1.4770164
-1.230113 82.641327 -22.025293 -150.29691 -23.202974 0.75823784 -19.251854 -4.6031337
-19.145071 -4.2686672 -23.203112 0.56443411 -30.980593 -100.34187 -1.1834211 86.233238
-22.86182 -1.4242437 -19.253672 -4.5556479 -1.1867814 86.216492 -32.739071 -106.54922
390000000 -23.449585 163.0434 -1.2497441 75.504982 -19.213779 -10.312637 -22.590809 -8.4731846
-1.2489961 75.484573 -21.59878 -158.29211 -22.884224 -6.0925164 -19.35021 -10.266991
-19.24011 -10.319511 -22.900377 -6.1763363 -31.349089 -112.19468 -1.2008822 79.130722
-22.625164 -8.3695688 -19.348562 -10.293531 -1.2018821 79.139771 -31.932314 -118.00456
400000000 -22.961109 155.29044 -1.2735249 68.361046 -19.454475 -16.332642 -22.336061 -15.281242
-1.2752367 68.323318 -21.265606 -166.36615 -22.618217 -12.904789 -19.575233 -15.853681
-19.44696 -16.278326 -22.578646 -13.023587 -31.764122 -125.10487 -1.2184356 72.062981
-22.315908 -15.645756 -19.598078 -15.995857 -1.2192783 72.077141 -31.286402 -127.44608
410000000 -22.538696 147.21004 -1.2910869 61.202423 -19.788403 -22.110847 -22.050665 -22.427219
-1.2873123 61.196331 -21.024908 -174.78033 -22.271656 -19.84635 -19.959078 -21.334108
-19.776844 -21.997797 -22.28068 -19.957748 -32.395195 -138.45694 -1.2331474 64.980309
-22.058451 -22.700834 -19.932644 -21.342815 -1.238113 64.984123 -30.625715 -136.87474
420000000 -22.196356 139.256 -1.3077563 54.069595 -20.281658 -27.844908 -21.790405 -29.963781
-1.3118484 54.055027 -20.852831 177.0551 -21.973995 -27.181702 -20.470217 -26.308186
-20.278103 -27.738712 -21.95673 -27.027369 -33.283875 -151.50867 -1.2488596 57.914951
-21.780188 -29.975063 -20.454227 -26.343117 -1.2501204 57.895012 -30.260027 -147.38065
430000000 -21.940826 131.60013 -1.3254405 46.920242 -20.916714 -33.241295 -21.535648 -37.214565
-1.3270388 46.894917 -20.725149 169.02664 -21.669807 -34.244843 -21.142548 -31.10141
-20.906986 -33.1623 -21.662214 -34.310081 -34.005199 -165.39268 -1.2623281 50.828281
-21.499868 -37.431206 -21.144461 -31.267694 -1.2631372 50.804302 -29.910904 -155.61749
440000000 -21.717911 123.62633 -1.3413835 39.76001 -21.7407 -38.156673 -21.268272 -44.750336
-1.3459154 39.744808 -20.71596 160.76874 -21.389893 -41.737808 -21.990128 -35.648521
-21.761877 -38.358494 -21.361174 -41.613735 -34.408546 178.15736 -1.2756985 43.744343
-21.277597 -44.714451 -21.966364 -35.604786 -1.2809401 43.704414 -29.749386 -164.54662
450000000 -21.613449 115.77944 -1.3586569 32.602024 -22.792948 -42.779469 -21.024019 -52.201
-1.3599243 32.589954 -20.733141 152.59268 -21.125544 -49.014503 -23.076052 -39.163013
-22.796761 -42.894218 -21.101927 -49.13871 -35.080429 160.30649 -1.2908472 36.612247
-21.039507 -52.204399 -23.05407 -39.256115 -1.2936151 36.62896 -29.618486 -172.53658
460000000 -21.536041 107.76723 -1.372618 25.431465 -24.091957 -46.533974 -20.798317 -59.805214
-1.371897 25.445095 -20.855007 143.98708 -20.860819 -56.844536 -24.338589 -41.609589
-24.078575 -46.580597 -20.840721 -56.711124 -35.562294 140.47107 -1.3012952 29.50515
-20.808176 -59.680119 -24.345526 -41.789886 -1.3063433 29.508671 -29.686764 179.07094
470000000 -21.520634 99.791374 -1.3864638 18.2754 -25.739649 -48.954632 -20.591764 -67.280777
-1.3875076 18.275286 -21.057356 135.30751 -20.616262 -64.298302 -25.892813 -41.911877
-25.707979 -48.952335 -20.62878 -64.301651 -36.047989 120.67147 -1.3131137 22.382456
-20.616737 -67.431137 -25.882082 -42.184685 -1.3180826 22.38331 -29.905651 170.0033
480000000 -21.548725 91.955864 -1.4021497 11.095443 -27.74991 -49.005714 -20.400606 -74.998726
-1.4037961 11.117509 -21.360174 126.14606 -20.410412 -71.991302 -27.724453 -38.968842
-27.807955 -48.823402 -20.406092 -72.109978 -36.054359 101.0554 -1.3298696 15.27454
-20.411747 -74.906036 -27.794085 -39.459919 -1.3331715 15.259525 -30.329264 162.57805
490000000 -21.655239 84.083458 -1.4162966 3.9125788 -30.305553 -43.92622 -20.233654 -82.497337
-1.4176788 3.9006157 -21.703272 116.88827 -20.214865 -79.766144 -29.725353 -30.794342
-30.297424 -44.110046 -20.214235 -79.752777 -35.683655 80.278748 -1.3470163 8.1618862
-20.234207 -82.63488 -29.660515 -30.896343 -1.3506774 8.1503801 -30.930294 154.38007
500000000 -21.804163 76.191444 -1.432972 -3.2596898 -33.001846 -28.465691 -20.070732 -90.117165
-1.4348137 -3.2690113 -22.117809 107.25945 -20.05061 -87.442802 -31.037914 -14.019749
-32.978329 -28.376247 -20.05295 -87.435486 -35.179558 60.693703 -1.3638668 1.029129
-20.072353 -90.053673 -31.111191 -14.716436 -1.3625931 1.0243495 -31.65468 145.60716
510000000 -22.093649 68.438744 -1.4502058 -10.445683 -33.946918 0.52559543 -19.923943 -97.748291
-1.4528592 -10.450927 -22.61075 96.856873 -19.913607 -95.050835 -30.897497 5.0319347
-33.861511 -0.25669026 -19.906567 -95.069412 -34.871754 44.97858 -1.3802598 -6.1090851
-19.942078 -97.731842 -30.884054 4.9162884 -1.3795377 -6.0827737 -32.788212 136.52678
520000000 -22.373648 60.735451 -1.4646906 -17.638222 -31.97842 24.212585 -19.796619 -105.26055
-1.4683632 -17.648148 -23.192945 86.373444 -19.773785 -102.67544 -29.419775 19.191273
-31.901308 23.990835 -19.779457 -102.79858 -34.103565 29.606131 -1.3983381 -13.241499
-19.805929 -105.2685 -29.376047 19.962669 -1.3989711 -13.22541 -34.245422 128.50954
530000000 -22.764164 53.196133 -1.4799321 -24.81086 -29.270849 34.276108 -19.675735 -112.71294
-1.4840827 -24.821064 -23.838852 75.160553 -19.663851 -110.2581 -27.498413 26.672377
-29.308039 34.654861 -19.665445 -110.13383 -33.64645 13.238208 -1.4183948 -20.351463
-19.697397 -112.72633 -27.50338 26.473799 -1.4193372 -20.352232 -36.095474 119.27109
540000000 -23.285965 45.734314 -1.4985271 -32.006336 -27.019506 37.288822 -19.584932 -120.07695
-1.5004499 -32.006641 -24.583618 63.167313 -19.560205 -117.57986 -25.817589 28.668989
-27.003874 37.02219 -19.558422 -117.61908 -33.499676 -2.2996027 -1.4382371 -27.456192
-19.586601 -120.04551 -25.801142 28.816757 -1.4383793 -27.454088 -39.250561 110.73883
550000000 -23.969658 38.105927 -1.5142725 -39.182774 -25.167513 36.201756 -19.476906 -127.37914
-1.5169601 -39.176521 -25.441231 50.637608 -19.486893 -125.03059 -24.356564 27.90819
