!Keysight Technologies,N5245A,MY56052327,A.10.47.06
!Date: Tuesday, January 19, 2021 16:44:37
!Correction: S11(Full 4 Port(1,2,3,4)) 
!S12(Full 4 Port(1,2,3,4)) 
!S13(Full 4 Port(1,2,3,4)) 
!S14(Full 4 Port(1,2,3,4)) 
!S21(Full 4 Port(1,2,3,4)) 
!S22(Full 4 Port(1,2,3,4)) 
!S23(Full 4 Port(1,2,3,4)) 
!S24(Full 4 Port(1,2,3,4)) 
!S31(Full 4 Port(1,2,3,4)) 
!S32(Full 4 Port(1,2,3,4)) 
!S33(Full 4 Port(1,2,3,4)) 
!S34(Full 4 Port(1,2,3,4)) 
!S41(Full 4 Port(1,2,3,4)) 
!S42(Full 4 Port(1,2,3,4)) 
!S43(Full 4 Port(1,2,3,4)) 
!S44(Full 4 Port(1,2,3,4)) 
!S4P File: Measurements: <S11,S12,S13,S14>,
!<S21,S22,S23,S24>,
!<S31,S32,S33,S34>,
!<S41,S42,S43,S44>:
# Hz S  dB   R 50
10000000 -20.320221 77.739868 -0.10851664 -7.1733241 -46.900391 76.128197 -59.966232 -145.75185
-0.088080525 -7.2831545 -20.383608 78.273392 -70.830513 130.30542 -47.89616 67.283211
-47.528679 84.229744 -57.346806 -176.28972 -20.54804 78.6716 -0.10069031 -7.2081585
-61.064629 178.27536 -47.04958 58.937683 -0.092971288 -7.2314458 -20.370939 78.897614
20000000 -25.999384 72.144859 -0.090226695 -6.3237443 -41.893871 75.525459 -53.517685 -121.65154
-0.09282627 -6.3597641 -26.005699 75.148788 -55.565319 -130.58905 -42.228775 77.641312
-42.254265 75.412811 -56.944172 -119.71723 -26.325272 74.735176 -0.082979389 -6.3848753
-55.223011 -104.23291 -42.200188 78.514671 -0.071605727 -6.3299618 -26.133348 75.93438
30000000 -28.850565 65.841339 -0.10348637 -7.2559152 -38.647362 78.01593 -53.09169 -136.2178
-0.098562449 -7.2640471 -28.883387 68.745445 -53.263893 -128.10875 -38.563221 79.778023
-38.823505 78.258179 -54.599697 -113.22245 -28.99687 67.247833 -0.094577983 -7.2611804
-53.713135 -123.56853 -38.867535 76.787979 -0.09697973 -7.2349463 -29.099588 69.680069
40000000 -30.48929 58.753883 -0.10331535 -8.5732279 -35.927986 76.486641 -52.664955 -131.61333
-0.10630956 -8.5717154 -30.776699 63.897984 -52.744064 -128.33511 -36.274292 76.71431
-36.146324 76.892296 -51.395847 -135.37253 -30.683746 57.812763 -0.10962234 -8.5451946
-51.051418 -122.85004 -36.445034 75.937256 -0.10471397 -8.5613823 -31.125473 63.89373
50000000 -31.494444 51.141056 -0.11264374 -10.111444 -34.450157 75.977486 -50.696133 -126.94687
-0.11407611 -10.102149 -31.916407 57.188877 -50.484238 -120.838 -34.382004 75.34977
-34.459232 75.392044 -49.590588 -129.0146 -32.077332 48.139957 -0.11115002 -10.132013
-49.815109 -129.54607 -34.452423 76.631065 -0.10781042 -10.114356 -32.480309 55.87347
60000000 -32.416412 45.627476 -0.12333517 -11.669674 -32.96492 75.435883 -48.676247 -123.6983
-0.1256143 -11.670497 -32.824753 50.577007 -48.732578 -123.39421 -32.805397 74.764442
-32.817173 74.737091 -48.552387 -130.16115 -33.269028 41.014099 -0.1188359 -11.64097
-48.662926 -118.25484 -32.880642 73.995163 -0.12239801 -11.649157 -33.481506 50.225037
70000000 -32.99987 38.013287 -0.1341669 -13.293573 -31.687195 73.687904 -47.609413 -127.46368
-0.13341112 -13.273317 -33.418755 44.792526 -47.833126 -129.21349 -31.653479 73.722397
-31.608448 73.570358 -48.003258 -124.97636 -34.121895 35.233837 -0.12832253 -13.303313
-48.35775 -124.77894 -31.617918 73.464767 -0.12459023 -13.277653 -34.078648 42.150169
80000000 -33.134686 34.303352 -0.13825013 -14.945787 -30.499662 72.14373 -46.621052 -125.79578
-0.13963152 -14.939029 -33.774208 39.729412 -47.092228 -126.66547 -30.552891 72.088272
-30.52495 72.172928 -47.280048 -126.21406 -33.968658 30.257141 -0.13127188 -14.909748
-47.585876 -121.98307 -30.501703 71.412659 -0.1349411 -14.942975 -34.731106 37.071392
90000000 -33.385902 27.296787 -0.15159571 -16.627466 -29.538506 70.75769 -46.409515 -125.43995
-0.15210932 -16.592705 -33.973312 36.170723 -45.803627 -125.55677 -29.534142 70.087868
-29.673172 70.427589 -45.965729 -126.55639 -34.113949 24.46026 -0.14533553 -16.638676
-45.966351 -127.13008 -29.580498 69.909248 -0.1480554 -16.615763 -35.044071 31.63549
100000000 -33.572346 23.910805 -0.15785284 -18.282877 -28.706432 68.913368 -45.258015 -123.11636
-0.15999271 -18.286829 -33.981182 31.063902 -45.324886 -127.02078 -28.736176 68.364914
-28.652906 69.239212 -45.151798 -125.28592 -34.144955 18.166277 -0.14928955 -18.318451
-45.714466 -127.51899 -28.719975 68.42469 -0.15231815 -18.312691 -35.2966 28.743872
110000000 -33.801285 18.558617 -0.16340248 -19.978987 -27.930418 67.533112 -44.833057 -127.10458
-0.16863331 -19.944035 -34.225559 27.561071 -44.97554 -128.44609 -27.930799 66.686943
-27.971838 67.45887 -44.786362 -125.58428 -34.278961 9.5044613 -0.16129045 -19.999189
-44.61845 -125.16783 -27.894512 66.840126 -0.1613571 -19.990013 -35.67725 22.498493
120000000 -33.788822 14.979724 -0.17196982 -21.66968 -27.193981 65.772736 -43.970463 -128.16797
-0.1747866 -21.673424 -34.318161 24.445368 -44.137089 -128.59001 -27.22373 64.908417
-27.19301 66.13916 -44.191223 -127.13098 -34.323963 4.4781919 -0.16862008 -21.690937
-44.37978 -127.53627 -27.188524 65.275139 -0.16719644 -21.687746 -36.048065 18.906664
130000000 -33.775486 10.15063 -0.18174882 -23.350481 -26.559448 64.199684 -43.394955 -127.60625
-0.18385886 -23.359299 -34.312527 20.224237 -43.663017 -127.2364 -26.619762 63.65567
-26.552614 64.233391 -43.457817 -130.72716 -34.246075 -0.84566659 -0.17446211 -23.368704
-43.733192 -127.15714 -26.613335 63.869148 -0.17474137 -23.387028 -36.299938 14.675604
140000000 -33.655273 7.9162865 -0.18585512 -25.038122 -25.948704 62.464832 -43.010078 -128.73169
-0.18770181 -25.01395 -34.588486 15.823047 -43.047169 -127.05417 -26.007248 62.10284
-25.969151 62.654404 -43.128132 -129.51729 -34.187824 -4.6441655 -0.17745647 -25.053673
-43.034958 -129.20383 -25.984915 62.147182 -0.1805961 -25.060072 -36.60371 10.492926
150000000 -33.60358 4.2931881 -0.18866213 -26.708826 -25.485823 61.12574 -42.727768 -130.19141
-0.1976286 -26.71784 -34.761009 13.555135 -42.722897 -130.01828 -25.451893 60.527157
-25.457613 61.097103 -42.551666 -130.21764 -33.932079 -7.6680684 -0.18546574 -26.741617
-42.352615 -128.63031 -25.454813 60.361824 -0.18983577 -26.733034 -36.77475 5.7957382
160000000 -33.406994 0.49320236 -0.19963458 -28.423748 -24.908293 59.589207 -42.051456 -130.84355
-0.19966091 -28.404369 -35.026535 9.8137503 -42.193474 -131.11618 -24.953102 58.814758
-24.956205 59.687187 -41.95639 -130.09645 -33.600384 -11.555766 -0.19288234 -28.431837
-41.896557 -128.02994 -24.935053 58.801769 -0.19347389 -28.428892 -37.27235 0.99792939
170000000 -33.388214 -2.8667631 -0.20046999 -30.094032 -24.447565 58.069202 -41.551716 -131.2556
-0.20705794 -30.093018 -35.225601 7.4884043 -41.612648 -132.24207 -24.508928 57.120113
-24.452923 57.956982 -41.526337 -131.00278 -33.314865 -16.189564 -0.19940336 -30.151764
-41.67445 -130.25581 -24.476845 56.949287 -0.20000443 -30.144484 -37.83078 -2.332732
180000000 -33.472374 -5.908637 -0.21215104 -31.819725 -24.042953 56.461758 -41.260674 -131.53801
-0.2130488 -31.798664 -35.167423 4.3939314 -41.146961 -133.41658 -24.038336 55.539814
-24.030195 56.410149 -41.216724 -132.78117 -33.132542 -20.479866 -0.204906 -31.86121
-41.13092 -131.76157 -24.057276 55.316444 -0.20817918 -31.829184 -37.951027 -5.193037
190000000 -33.371925 -9.6868973 -0.21740241 -33.494267 -23.631372 54.885586 -40.623596 -131.31067
-0.21772219 -33.484837 -35.240086 1.5358486 -40.916756 -132.71869 -23.628325 53.912506
-23.633764 54.77037 -40.848778 -134.43526 -32.995243 -25.98004 -0.20927905 -33.558643
-40.51136 -132.19327 -23.659637 53.692505 -0.21332268 -33.530418 -38.201771 -8.0439844
200000000 -33.238613 -13.046664 -0.22413199 -35.18222 -23.243866 53.066711 -40.383297 -133.1097
-0.22570853 -35.177349 -35.40152 -0.38654152 -40.388992 -134.36131 -23.262653 52.120468
-23.222288 53.294083 -40.465115 -135.28851 -32.869946 -28.665474 -0.21631446 -35.224777
-40.295551 -134.04413 -23.254164 52.284046 -0.2191121 -35.254253 -38.611164 -11.54276
210000000 -33.218544 -15.709263 -0.23146778 -36.867634 -22.890656 51.56588 -39.92144 -134.13773
-0.23380823 -36.900837 -35.656826 -2.4517012 -39.938267 -136.63191 -22.906986 50.515285
-22.866367 51.475727 -40.103527 -135.63293 -32.607414 -31.401449 -0.22047487 -36.951706
-39.856323 -135.10284 -22.899822 50.408699 -0.2229753 -36.945152 -38.94685 -14.416026
220000000 -33.140324 -17.839291 -0.23827684 -38.560951 -22.571402 49.839577 -39.312885 -136.07166
-0.23845103 -38.574265 -35.414375 -3.6052372 -39.644058 -138.2307 -22.557852 48.922813
-22.565086 49.959621 -39.739494 -138.93704 -32.388126 -34.262142 -0.23043784 -38.646568
-39.301277 -134.98427 -22.566454 48.873955 -0.23410484 -38.627663 -39.468731 -16.88484
230000000 -32.989426 -19.984369 -0.24358819 -40.277496 -22.246336 48.299706 -39.119629 -137.18326
-0.24205808 -40.272717 -35.428425 -6.3520017 -39.260185 -138.47878 -22.242868 47.151318
-22.220486 48.189941 -39.164783 -138.58524 -32.31015 -37.544399 -0.23257266 -40.333767
-39.149002 -135.96942 -22.220455 47.08968 -0.23618959 -40.333588 -39.556705 -21.52878
240000000 -32.984852 -21.379313 -0.24809134 -41.981037 -21.935221 46.649216 -38.627274 -138.76152
-0.25085366 -41.959255 -35.686661 -7.9420118 -38.863461 -139.78011 -21.929501 45.53912
-21.943895 46.715858 -38.865177 -140.41019 -31.623981 -37.539818 -0.24096209 -42.037979
-38.481659 -138.79709 -21.934187 45.52787 -0.24492912 -42.048931 -40.283844 -17.817781
250000000 -32.796959 -24.302835 -0.25128886 -43.667995 -21.646812 45.062096 -38.41209 -139.94804
-0.2569744 -43.672054 -35.488644 -11.058812 -38.72245 -141.60121 -21.652971 43.73595
-21.654707 44.956188 -38.625881 -141.22054 -31.707031 -44.282269 -0.24424939 -43.736046
-38.492004 -139.13005 -21.655136 43.97813 -0.245906 -43.751602 -39.62104 -21.394773
260000000 -32.82391 -25.817799 -0.26130682 -45.348541 -21.388523 43.467678 -37.950214 -140.99452
-0.25954062 -45.37418 -35.680996 -11.380293 -38.309677 -143.34734 -21.394753 42.235191
-21.411289 43.489716 -38.38982 -142.73535 -31.64135 -42.133492 -0.25209862 -45.436817
-38.0163 -141.24101 -21.411613 42.279945 -0.2521303 -45.443909 -41.480217 -24.571093
270000000 -32.68557 -28.450224 -0.26703817 -47.065304 -21.157949 41.880405 -37.608383 -142.49763
-0.2685512 -47.036774 -35.53133 -13.22056 -38.122475 -144.56622 -21.14089 40.535854
-21.120651 41.903492 -38.083672 -143.067 -31.280668 -45.215797 -0.25787172 -47.128544
-37.615543 -142.20372 -21.134171 40.299679 -0.25793749 -47.117714 -41.304508 -26.372759
280000000 -32.6469 -30.62203 -0.27053979 -48.750263 -20.9104 40.212135 -37.3377 -142.8546
-0.27085811 -48.730713 -35.724144 -15.208439 -37.717392 -146.39809 -20.922787 38.767895
-20.88287 40.319061 -37.747742 -146.21385 -30.974155 -47.765793 -0.26070642 -48.856812
-37.356518 -143.99377 -20.884588 38.708385 -0.26419526 -48.833923 -42.361549 -27.384043
290000000 -32.56337 -33.18644 -0.27832225 -50.431313 -20.678143 38.647381 -37.135303 -145.14673
-0.27667415 -50.443146 -35.904858 -15.769258 -37.43935 -147.31598 -20.667778 37.159843
-20.681843 38.572048 -37.415085 -146.78223 -30.711906 -50.020317 -0.2664389 -50.533699
-36.884445 -144.522 -20.65917 37.250431 -0.26997477 -50.527252 -42.854366 -25.753809
300000000 -32.464428 -35.539524 -0.28424108 -52.163101 -20.450796 36.963982 -36.796593 -146.37875
-0.28438273 -52.142029 -36.109962 -18.071072 -37.100861 -147.52966 -20.46903 35.536667
-20.463818 36.965637 -37.204063 -148.00262 -30.421234 -52.924824 -0.27381647 -52.231167
-36.831192 -146.16159 -20.454861 35.517094 -0.27423009 -52.199299 -42.975601 -26.954115
310000000 -32.434696 -37.631584 -0.29029742 -53.823895 -20.272814 35.285595 -36.415649 -147.12021
-0.28949997 -53.806545 -36.141762 -19.93058 -36.910667 -149.22595 -20.272345 33.869553
-20.257517 35.312523 -37.023594 -149.39072 -30.33754 -55.116848 -0.27808779 -53.942596
-36.468891 -147.77739 -20.26088 33.708225 -0.28205967 -53.923035 -43.572975 -27.53661
320000000 -32.283989 -39.688885 -0.29394901 -55.51059 -20.071272 33.729767 -36.174587 -149.55609
-0.29366943 -55.53014 -36.279495 -20.598532 -36.751648 -151.27066 -20.091423 32.115189
-20.080679 33.689358 -36.642948 -151.15913 -30.132723 -56.685986 -0.28787312 -55.591484
-36.213905 -148.625 -20.066999 32.126678 -0.28393561 -55.626534 -44.728703 -27.157116
330000000 -32.09787 -41.716957 -0.29696336 -57.198906 -19.913733 32.080864 -35.927891 -150.36198
-0.30138391 -57.217037 -36.443836 -21.750326 -36.272202 -151.80421 -19.913776 30.509209
-19.912729 32.065464 -36.445381 -151.76579 -29.861633 -57.898468 -0.28894365 -57.342224
-36.044701 -150.5835 -19.899567 30.246609 -0.2907066 -57.3102 -45.341557 -25.789686
340000000 -31.955036 -43.335228 -0.3050476 -58.919178 -19.735731 30.377628 -35.613457 -152.10364
-0.30560249 -58.894146 -36.255833 -22.71875 -36.123154 -153.69809 -19.739565 28.745941
-19.731169 30.595392 -36.084267 -154.46791 -29.636375 -60.280025 -0.29378402 -59.016708
-35.752327 -152.63068 -19.733896 28.727568 -0.29776916 -59.035976 -45.290222 -25.405312
350000000 -31.793312 -45.734219 -0.30967104 -60.585705 -19.5875 28.844158 -35.39325 -153.13466
-0.30985543 -60.59901 -36.336971 -24.156248 -35.957417 -154.68654 -19.580624 27.100834
-19.584612 28.813953 -36.008575 -155.0722 -29.347406 -61.774956 -0.30121639 -60.705566
-35.527687 -153.0219 -19.595272 27.095196 -0.30177486 -60.705791 -45.60812 -22.628988
360000000 -31.591175 -46.88065 -0.3120625 -62.280151 -19.428982 27.254423 -35.244774 -154.75812
-0.31721577 -62.300179 -36.530823 -25.55546 -35.736168 -155.72792 -19.427023 25.369072
-19.437292 27.1775 -35.763561 -156.3597 -29.241053 -64.870094 -0.30504861 -62.402363
-35.264191 -154.37389 -19.418489 25.526091 -0.30684981 -62.394489 -46.889107 -31.405586
370000000 -31.381918 -48.965443 -0.31867662 -63.98877 -19.311045 25.554346 -34.985672 -156.79498
-0.32429022 -63.985146 -36.538628 -26.795404 -35.533897 -158.00935 -19.30653 23.845646
-19.309444 25.694735 -35.483055 -158.77647 -29.045168 -66.107048 -0.31165138 -64.115318
-34.954086 -156.61264 -19.294746 23.860973 -0.31201926 -64.089325 -47.828617 -18.119356
380000000 -31.252748 -51.423557 -0.32542616 -65.672821 -19.176752 24.050842 -34.708061 -157.85518
-0.32705188 -65.666374 -36.527576 -29.370371 -35.291111 -158.90732 -19.153547 22.190027
-19.173222 24.098375 -35.268375 -159.81369 -28.872215 -67.850044 -0.31274077 -65.790115
-34.777615 -158.2379 -19.162846 22.118105 -0.31715527 -65.796547 -49.192719 -20.130939
390000000 -31.257448 -52.862457 -0.32900983 -67.347183 -19.058397 22.403688 -34.549412 -159.53893
-0.33091098 -67.368866 -36.740059 -30.890848 -35.105877 -160.60945 -19.040869 20.528944
-19.053286 22.392088 -35.01992 -160.71698 -28.581453 -69.130089 -0.3220436 -67.493431
-34.556808 -160.02298 -19.047293 20.391607 -0.32020068 -67.486809 -50.576656 -14.104572
400000000 -31.098309 -54.902916 -0.33103636 -69.053711 -18.952894 20.860626 -34.247295 -161.2634
-0.33496222 -69.079407 -37.070511 -32.136478 -34.932049 -162.02576 -18.952728 18.638233
-18.938194 20.834229 -34.731129 -162.4041 -28.202219 -71.264519 -0.32564712 -69.171814
-34.307148 -161.35077 -18.946325 18.732143 -0.32597989 -69.160629 -52.358757 -5.6699677
410000000 -30.986782 -57.504196 -0.3411755 -70.739777 -18.843462 19.164198 -34.117928 -162.59985
-0.3418912 -70.716263 -37.238873 -33.800945 -34.527431 -163.56258 -18.8279 17.077854
-18.828909 19.223234 -34.738041 -163.32408 -28.065962 -74.01503 -0.32944143 -70.852005
-34.094181 -163.42087 -18.816887 16.968559 -0.32885423 -70.855469 -51.427998 9.2235136
420000000 -30.990088 -59.719788 -0.34373903 -72.429871 -18.744595 17.550592 -33.781288 -164.00073
-0.35004327 -72.394936 -37.55294 -37.782635 -34.334484 -164.90977 -18.724089 15.511693
-18.752003 17.60741 -34.384697 -164.14879 -27.942137 -75.550003 -0.33237067 -72.546997
-33.852642 -164.06331 -18.740316 15.52013 -0.33271834 -72.542671 -54.15403 21.689878
430000000 -30.728767 -61.711636 -0.34816185 -74.097282 -18.65205 15.962881 -33.617847 -165.86061
-0.34785041 -74.107994 -37.673668 -37.916847 -34.287186 -166.00565 -18.664064 13.783669
-18.654186 15.872656 -34.256199 -166.82196 -27.739191 -76.982697 -0.33979508 -74.256149
-33.672039 -165.99423 -18.66136 13.711397 -0.33879301 -74.238335 -52.39394 45.32465
440000000 -30.688839 -64.029442 -0.35627165 -75.777435 -18.573902 14.289268 -33.438126 -166.42165
-0.35461232 -75.782974 -38.034363 -38.605328 -34.095589 -167.56822 -18.573212 12.053061
-18.576515 14.31491 -34.12257 -168.18875 -27.460375 -78.216988 -0.34379193 -75.9673
-33.485474 -167.00281 -18.58576 12.221787 -0.3425287 -75.936821 -51.010799 57.620125
450000000 -30.641287 -66.222733 -0.36197817 -77.477798 -18.524904 12.686697 -33.127953 -168.35204
-0.36243513 -77.489334 -37.964615 -39.167664 -33.889523 -169.18887 -18.507309 10.423981
-18.514229 12.862133 -33.943775 -169.18637 -27.233366 -80.008209 -0.3478196 -77.624878
-33.239964 -169.38138 -18.505766 10.457057 -0.34897995 -77.641609 -48.462505 57.845486
460000000 -30.471394 -68.118225 -0.36478338 -79.143089 -18.469376 11.115854 -33.05534 -171.03021
-0.36692327 -79.149727 -38.006264 -41.762302 -33.672009 -170.31691 -18.4277 8.7505417
-18.456205 11.150818 -33.744415 -170.37888 -27.033693 -82.175461 -0.35219139 -79.318848
-32.982723 -170.26683 -18.451853 8.8230953 -0.3527 -79.304977 -47.814266 53.547092
470000000 -30.389301 -69.665382 -0.37106681 -80.838272 -18.402781 9.5249367 -32.793949 -171.54962
-0.37237918 -80.855217 -37.954479 -43.74847 -33.524723 -171.72057 -18.405983 7.0677385
-18.394938 9.4587879 -33.457474 -172.33406 -26.895016 -83.8536 -0.3578831 -81.003288
-32.842789 -171.77448 -18.361692 7.0599208 -0.35945061 -80.987114 -47.673981 64.626938
480000000 -30.244831 -70.999763 -0.37181494 -82.525276 -18.353886 7.8731112 -32.641682 -173.24112
-0.38084683 -82.535538 -37.954582 -45.678631 -33.34288 -173.99203 -18.350147 5.327301
-18.358618 7.9238133 -33.355068 -173.74297 -26.746801 -85.235649 -0.3596639 -82.688362
-32.665592 -173.67805 -18.321974 5.3808751 -0.36303085 -82.687622 -45.847145 62.470413
490000000 -30.038801 -72.788521 -0.37640277 -84.214279 -18.315413 6.3103194 -32.459309 -175.26544
-0.38279897 -84.202431 -37.7537 -44.94841 -33.185913 -175.17152 -18.296461 3.8077323
-18.314083 6.3223977 -33.194004 -174.47203 -26.569836 -86.787361 -0.36606821 -84.379784
-32.42794 -175.26904 -18.295677 3.642709 -0.36480081 -84.371391 -44.285416 64.522987
500000000 -29.994093 -74.350777 -0.38081852 -85.884926 -18.282276 4.7286282 -32.280216 -176.9416
-0.38407159 -85.899284 -37.756535 -46.879559 -32.93174 -176.07312 -18.271748 2.0437622
-18.273922 4.6841335 -32.951946 -176.31558 -26.53303 -88.989479 -0.36915034 -86.075714
-32.334831 -176.89064 -18.266718 2.1307693 -0.37034073 -86.047867 -44.282192 63.40807
510000000 -30.011887 -75.424446 -0.38692391 -87.585205 -18.249819 3.0551703 -32.116348 -178.599
-0.38818529 -87.574799 -37.944511 -48.304356 -32.775333 -178.20485 -18.232178 0.31961477
-18.244381 3.1252711 -32.81588 -177.93144 -26.402802 -89.60025 -0.37197626 -87.750191
-32.068718 -178.18228 -18.225042 0.33816656 -0.37393439 -87.742065 -43.68721 67.241058
520000000 -29.930326 -77.839386 -0.39191869 -89.253891 -18.237827 1.5512574 -31.926947 179.98827
-0.39187762 -89.259727 -38.311295 -47.597343 -32.644871 -179.53291 -18.207527 -1.2585694
-18.2384 1.6193744 -32.727829 -179.15065 -26.101612 -91.565552 -0.37474114 -89.421677
-31.858082 -179.67439 -18.18667 -1.2753589 -0.37745816 -89.420746 -42.584301 68.834282
530000000 -29.818745 -79.335213 -0.3950496 -90.939491 -18.218897 -0.0061732754 -31.779036 178.509
-0.39765257 -90.943436 -38.33532 -49.857079 -32.46669 -179.89307 -18.198416 -2.9332185
-18.219402 -0.014402189 -32.47427 179.39626 -25.939697 -94.121773 -0.37624714 -91.111084
-31.785709 178.51866 -18.192648 -2.9448426 -0.3803837 -91.122429 -42.07299 64.87175
540000000 -29.737801 -81.740982 -0.39898649 -92.612343 -18.209978 -1.6540228 -31.596844 176.71924
-0.40107656 -92.624138 -38.809814 -51.855972 -32.259613 178.01112 -18.189482 -4.6088123
-18.212574 -1.6304765 -32.305775 178.57153 -25.932281 -95.862816 -0.38346428 -92.809212
-31.643581 176.87801 -18.18289 -4.6403937 -0.38386613 -92.795364 -41.742039 67.540268
